Circuit: * C:\Users\User\Desktop\Chua_TL\tu-delft\Q1\analog-circuit-design-fundamentals-fa21\hw\hw05\spice\q4-2\gain\diff-amp.asc

Ignoring BSIM parameter XL
Ignoring BSIM parameter XW
Ignoring BSIM parameter ACM
Ignoring BSIM parameter LDIF
Ignoring BSIM parameter HDIF
Ignoring BSIM parameter TLEV
Ignoring BSIM parameter TLEVC
Ignoring BSIM parameter CALCACM
Ignoring BSIM parameter SFVTFLAGl
Ignoring BSIM parameter XL
Ignoring BSIM parameter XW
Ignoring BSIM parameter ACM
Ignoring BSIM parameter LDIF
Ignoring BSIM parameter HDIF
Ignoring BSIM parameter TLEV
Ignoring BSIM parameter TLEVC
Ignoring BSIM parameter CALCACM
Ignoring BSIM parameter SFVTFLAGl
WARNING: Less than two connections to node VOUT.  This node is used by E2.
Warning: Pd = 0 is less than W.
Warning: Ps = 0 is less than W.
Warning: Pd = 0 is less than W.
Warning: Ps = 0 is less than W.
Warning: Pd = 0 is less than W.
Warning: Ps = 0 is less than W.
Direct Newton iteration for .op point succeeded.
Semiconductor Device Operating Points:
                        --- BSIM3 MOSFETS ---
Name:        mp2         mp1         mn4         mn3         mn2
Model:      pch.1       pch.1       nch.1       nch.1       nch.1
Id:        2.47e-05    2.47e-05    4.94e-05    5.00e-05    2.47e-05
Vgs:       0.00e+00    0.00e+00    5.99e-01    5.99e-01    5.74e-01
Vds:       7.23e-01    7.23e-01    3.26e-01    5.99e-01    7.52e-01
Vbs:       7.23e-01    7.23e-01    0.00e+00    0.00e+00   -3.26e-01
Vth:      -4.47e-01   -4.47e-01    4.62e-01    4.62e-01    5.39e-01
Vdsat:    -2.55e-01   -2.55e-01    1.80e-01    1.80e-01    1.06e-01
Gm:        1.58e-04    1.58e-04    5.33e-04    5.41e-04    4.10e-04
Gds:       5.58e-07    5.58e-07    4.38e-06    1.46e-06    5.37e-07
Gmb        5.20e-05    5.20e-05    1.55e-04    1.57e-04    1.03e-04
Cbd:       0.00e+00    0.00e+00    0.00e+00    0.00e+00    0.00e+00
Cbs:       0.00e+00    0.00e+00    0.00e+00    0.00e+00    0.00e+00
Cgsov:     6.55e-15    6.55e-15    7.32e-15    7.32e-15    2.93e-14
Cgdov:     6.55e-15    6.55e-15    7.32e-15    7.32e-15    2.93e-14
Cgbov:     5.46e-16    5.46e-16    3.64e-16    3.64e-16    7.29e-16
dQgdVgb:   2.61e-13    2.61e-13    2.36e-13    2.35e-13    1.40e-12
dQgdVdb:  -6.65e-15   -6.65e-15   -8.15e-15   -7.40e-15   -2.92e-14
dQgdVsb:  -2.42e-13   -2.42e-13   -2.03e-13   -2.02e-13   -1.11e-12
dQddVgb:  -7.09e-15   -7.09e-15   -1.00e-14   -7.87e-15   -3.06e-14
dQddVdb:   6.86e-15    6.86e-15    8.90e-15    7.52e-15    2.95e-14
dQddVsb:   4.17e-16    4.17e-16    1.88e-15    5.09e-16    1.46e-15
dQbdVgb:  -3.62e-14   -3.62e-14   -2.07e-14   -2.09e-14   -2.01e-13
dQbdVdb:  -5.90e-17   -5.90e-17   -1.79e-16   -1.33e-17    5.14e-17
dQbdVsb:  -4.35e-14   -4.35e-14   -6.18e-14   -6.16e-14   -3.51e-13

Name:        mn1
Model:      nch.1
Id:        2.47e-05
Vgs:       5.74e-01
Vds:       7.52e-01
Vbs:      -3.26e-01
Vth:       5.39e-01
Vdsat:     1.06e-01
Gm:        4.10e-04
Gds:       5.37e-07
Gmb        1.03e-04
Cbd:       0.00e+00
Cbs:       0.00e+00
Cgsov:     2.93e-14
Cgdov:     2.93e-14
Cgbov:     7.29e-16
dQgdVgb:   1.40e-12
dQgdVdb:  -2.92e-14
dQgdVsb:  -1.11e-12
dQddVgb:  -3.06e-14
dQddVdb:   2.95e-14
dQddVsb:   1.46e-15
dQbdVgb:  -2.01e-13
dQbdVdb:   5.14e-17
dQbdVsb:  -3.51e-13



Date: Sun Oct 17 01:54:52 2021
Total elapsed time: 0.176 seconds.

tnom = 27
temp = 27
method = trap
totiter = 45
traniter = 0
tranpoints = 0
accept = 0
rejected = 0
matrix size = 14
fillins = 0
solver = Normal
Matrix Compiler1:      31 opcodes
Matrix Compiler2:      84 opcodes
