Circuit: * C:\Users\User\Desktop\Chua_TL\tu-delft\Q1\analog-circuit-design-fundamentals-fa21\hw\hw03\spice\q4\current-source\differential-pair-current-mirror.asc

Ignoring BSIM parameter XL
Ignoring BSIM parameter XW
Ignoring BSIM parameter ACM
Ignoring BSIM parameter LDIF
Ignoring BSIM parameter HDIF
Ignoring BSIM parameter TLEV
Ignoring BSIM parameter TLEVC
Ignoring BSIM parameter CALCACM
Ignoring BSIM parameter SFVTFLAGl
Ignoring BSIM parameter XL
Ignoring BSIM parameter XW
Ignoring BSIM parameter ACM
Ignoring BSIM parameter LDIF
Ignoring BSIM parameter HDIF
Ignoring BSIM parameter TLEV
Ignoring BSIM parameter TLEVC
Ignoring BSIM parameter CALCACM
Ignoring BSIM parameter SFVTFLAGl
WARNING: Less than two connections to node CASCODE_N_TEST.  This node is used by V5.
WARNING: Less than two connections to node CASCODE_P_TEST.  This node is used by V6.
Warning: Pd = 0 is less than W.
Warning: Ps = 0 is less than W.
Warning: Pd = 0 is less than W.
Warning: Ps = 0 is less than W.
Warning: Pd = 0 is less than W.
Warning: Ps = 0 is less than W.
Direct Newton iteration failed to find .op point.  (Use ".option noopiter" to skip.)
Starting Gmin stepping
Gmin = 10
Gmin = 1.07374
Gmin = 0.115292
Gmin = 0.0123794
Gmin = 0.00132923
Gmin = 0.000142725
Gmin = 1.5325e-005
Gmin = 1.6455e-006
Gmin = 1.76685e-007
Gmin = 1.89714e-008
Gmin = 2.03704e-009
Gmin = 2.18725e-010
Gmin = 2.34854e-011
Gmin = 2.52173e-012
Gmin = 2.70769e-013
Gmin = 0
Gmin stepping succeeded in finding the operating point.

Semiconductor Device Operating Points:
                        --- BSIM3 MOSFETS ---
Name:        m12         m8          m7          m6          m5
Model:      pch.2       pch.2       pch.2       pch.2       pch.2
Id:       -1.53e-05   -1.54e-05   -1.54e-05   -1.54e-05   -1.54e-05
Vgs:      -5.61e-01   -6.53e-01   -6.53e-01   -5.63e-01   -5.63e-01
Vds:      -5.61e-01   -2.71e-01   -2.71e-01   -2.92e-01   -2.92e-01
Vbs:       0.00e+00    2.92e-01    2.92e-01    0.00e+00    0.00e+00
Vth:      -4.57e-01   -5.45e-01   -5.45e-01   -4.57e-01   -4.57e-01
Vdsat:    -1.28e-01   -1.33e-01   -1.33e-01   -1.29e-01   -1.29e-01
Gm:        1.97e-04    1.94e-04    1.94e-04    1.96e-04    1.96e-04
Gds:       8.96e-07    1.96e-06    1.96e-06    1.66e-06    1.66e-06
Gmb        6.44e-05    5.66e-05    5.66e-05    6.40e-05    6.40e-05
Cbd:       0.00e+00    0.00e+00    0.00e+00    0.00e+00    0.00e+00
Cbs:       0.00e+00    0.00e+00    0.00e+00    0.00e+00    0.00e+00
Cgsov:     9.83e-15    9.83e-15    9.83e-15    9.83e-15    9.83e-15
Cgdov:     9.83e-15    9.83e-15    9.83e-15    9.83e-15    9.83e-15
Cgbov:     2.73e-16    2.73e-16    2.73e-16    2.73e-16    2.73e-16
dQgdVgb:   1.93e-13    1.94e-13    1.94e-13    1.94e-13    1.94e-13
dQgdVdb:  -9.85e-15   -1.03e-14   -1.03e-14   -1.02e-14   -1.02e-14
dQgdVsb:  -1.69e-13   -1.73e-13   -1.73e-13   -1.70e-13   -1.70e-13
dQddVgb:  -1.02e-14   -1.19e-14   -1.19e-14   -1.15e-14   -1.15e-14
dQddVdb:   9.95e-15    1.10e-14    1.10e-14    1.07e-14    1.07e-14
dQddVsb:   3.63e-16    1.42e-15    1.42e-15    1.27e-15    1.27e-15
dQbdVgb:  -2.96e-14   -2.75e-14   -2.75e-14   -2.93e-14   -2.93e-14
dQbdVdb:  -2.27e-17   -2.79e-16   -2.79e-16   -2.18e-16   -2.18e-16
dQbdVsb:  -3.10e-14   -2.50e-14   -2.50e-14   -3.12e-14   -3.12e-14

Name:        m14         m10         m9          m4          m3
Model:      nch.2       nch.2       nch.2       nch.2       nch.2
Id:        1.53e-05    1.54e-05    1.54e-05    1.50e-05    3.07e-05
Vgs:       4.99e-01    7.32e-01    7.32e-01    4.99e-01    4.99e-01
Vds:       8.55e-01    2.70e-01    2.70e-01    4.99e-01    8.01e-01
Vbs:       0.00e+00   -9.67e-01   -9.67e-01    0.00e+00    0.00e+00
Vth:       4.81e-01    7.09e-01    7.09e-01    4.81e-01    4.81e-01
Vdsat:     9.47e-02    1.00e-01    1.00e-01    9.47e-02    9.48e-02
Gm:        2.63e-04    2.65e-04    2.65e-04    2.58e-04    5.27e-04
Gds:       9.01e-07    2.04e-06    2.04e-06    1.07e-06    1.83e-06
Gmb        7.60e-05    5.35e-05    5.35e-05    7.47e-05    1.53e-04
Cbd:       0.00e+00    0.00e+00    0.00e+00    0.00e+00    0.00e+00
Cbs:       0.00e+00    0.00e+00    0.00e+00    0.00e+00    0.00e+00
Cgsov:     5.49e-15    5.49e-15    5.49e-15    5.49e-15    1.10e-14
Cgdov:     5.49e-15    5.49e-15    5.49e-15    5.49e-15    1.10e-14
Cgbov:     1.81e-16    1.81e-16    1.81e-16    1.81e-16    1.81e-16
dQgdVgb:   7.03e-14    7.00e-14    7.00e-14    7.03e-14    1.41e-13
dQgdVdb:  -5.48e-15   -5.55e-15   -5.55e-15   -5.49e-15   -1.10e-14
dQgdVsb:  -4.81e-14   -5.33e-14   -5.33e-14   -4.81e-14   -9.66e-14
dQddVgb:  -5.53e-15   -5.91e-15   -5.91e-15   -5.60e-15   -1.11e-14
dQddVdb:   5.49e-15    5.62e-15    5.62e-15    5.51e-15    1.10e-14
dQddVsb:   4.37e-17    3.76e-16    3.76e-16    1.21e-16    9.99e-17
dQbdVgb:  -1.52e-14   -1.11e-14   -1.11e-14   -1.52e-14   -3.03e-14
dQbdVdb:   1.95e-18   -1.44e-17   -1.44e-17   -4.56e-19    3.69e-18
dQbdVsb:  -1.43e-14   -9.78e-15   -9.78e-15   -1.43e-14   -2.91e-14

Name:        m2          m1
Model:      nch.2       nch.2
Id:        1.54e-05    1.54e-05
Vgs:       6.99e-01    6.99e-01
Vds:       1.66e-01    1.66e-01
Vbs:      -8.01e-01   -8.01e-01
Vth:       6.75e-01    6.75e-01
Vdsat:     1.00e-01    1.00e-01
Gm:        2.61e-04    2.61e-04
Gds:       6.49e-06    6.49e-06
Gmb        5.53e-05    5.53e-05
Cbd:       0.00e+00    0.00e+00
Cbs:       0.00e+00    0.00e+00
Cgsov:     5.49e-15    5.49e-15
Cgdov:     5.49e-15    5.49e-15
Cgbov:     1.81e-16    1.81e-16
dQgdVgb:   7.11e-14    7.11e-14
dQgdVdb:  -5.76e-15   -5.76e-15
dQgdVsb:  -5.38e-14   -5.38e-14
dQddVgb:  -6.63e-15   -6.63e-15
dQddVdb:   6.02e-15    6.02e-15
dQddVsb:   8.49e-16    8.49e-16
dQbdVgb:  -1.13e-14   -1.13e-14
dQbdVdb:  -6.77e-17   -6.77e-17
dQbdVsb:  -1.05e-14   -1.05e-14



Date: Fri Oct 01 21:40:54 2021
Total elapsed time: 0.100 seconds.

tnom = 27
temp = 27
method = trap
totiter = 410
traniter = 0
tranpoints = 0
accept = 0
rejected = 0
matrix size = 23
fillins = 12
solver = Normal
Matrix Compiler1: 2.34 KB object code size
Matrix Compiler2: 2.17 KB object code size  0.2/0.2/[0.1]

