Circuit: * C:\Users\User\Desktop\Chua_TL\tu-delft\Q1\analog-circuit-design-fundamentals-fa21\labs\rf\spice\q6\D\impedance-match\zin-zout\EE4C10_RF_LNA_wFB_student_2021.asc

Ignoring BSIM parameter XL
Ignoring BSIM parameter XW
Ignoring BSIM parameter ACM
Ignoring BSIM parameter LDIF
Ignoring BSIM parameter HDIF
Ignoring BSIM parameter TLEV
Ignoring BSIM parameter TLEVC
Ignoring BSIM parameter CALCACM
Ignoring BSIM parameter SFVTFLAGl
Warning: Pd = 0 is less than W.
Warning: Ps = 0 is less than W.
Direct Newton iteration for .op point succeeded.
Semiconductor Device Operating Points:
                        --- BSIM3 MOSFETS ---
Name:        m1
Model:      nch.3
Id:        1.19e-02
Vgs:       7.00e-01
Vds:       1.80e+00
Vbs:       0.00e+00
Vth:       5.08e-01
Vdsat:     1.68e-01
Gm:        7.74e-02
Gds:       1.62e-03
Gmb        2.20e-02
Cbd:       0.00e+00
Cbs:       0.00e+00
Cgsov:     7.33e-14
Cgdov:     7.33e-14
Cgbov:     1.59e-16
dQgdVgb:   3.71e-13
dQgdVdb:  -7.29e-14
dQgdVsb:  -2.64e-13
dQddVgb:  -7.33e-14
dQddVdb:   7.33e-14
dQddVsb:   4.52e-17
dQbdVgb:  -4.05e-14
dQbdVdb:   8.74e-17
dQbdVsb:  -4.49e-14



Date: Mon Oct 25 17:16:48 2021
Total elapsed time: 0.132 seconds.

tnom = 27
temp = 27
method = trap
totiter = 4
traniter = 0
tranpoints = 0
accept = 0
rejected = 0
matrix size = 9
fillins = 1
solver = Normal
Matrix Compiler1:      24 opcodes
Matrix Compiler2: 641 bytes object code size
