Circuit: * C:\Users\User\Desktop\Chua_TL\tu-delft\Q1\analog-circuit-design-fundamentals-fa21\hw\hw02\spice\q5\a\cascode.asc

Ignoring BSIM parameter XL
Ignoring BSIM parameter XW
Ignoring BSIM parameter ACM
Ignoring BSIM parameter LDIF
Ignoring BSIM parameter HDIF
Ignoring BSIM parameter TLEV
Ignoring BSIM parameter TLEVC
Ignoring BSIM parameter CALCACM
Ignoring BSIM parameter SFVTFLAGl
Warning: Pd = 0 is less than W.
Warning: Ps = 0 is less than W.
Warning: Pd = 0 is less than W.
Warning: Ps = 0 is less than W.
Direct Newton iteration failed to find .op point.  (Use ".option noopiter" to skip.)
Starting Gmin stepping
Gmin = 10
Gmin = 1.07374
Gmin = 0.115292
Gmin = 0.0123794
Gmin = 0.00132923
Gmin = 0.000142725
Gmin = 1.5325e-005
Gmin = 1.6455e-006
Gmin = 1.76685e-007
Gmin = 1.89714e-008
Gmin = 2.03704e-009
Gmin = 2.18725e-010
Gmin = 2.34854e-011
Gmin = 2.52173e-012
Gmin = 2.70769e-013
Gmin = 0
Gmin stepping succeeded in finding the operating point.

Semiconductor Device Operating Points:
                        --- BSIM3 MOSFETS ---
Name:        m2          m1
Model:      nch.3       nch.3
Id:        3.74e-04    3.74e-04
Vgs:       7.73e-01    6.00e-01
Vds:       7.05e-01    7.27e-01
Vbs:      -7.27e-01    0.00e+00
Vth:       6.78e-01    4.97e-01
Vdsat:     1.18e-01    1.35e-01
Gm:        4.21e-03    4.42e-03
Gds:       1.29e-04    4.49e-05
Gmb        7.98e-04    1.27e-03
Cbd:       0.00e+00    0.00e+00
Cbs:       0.00e+00    0.00e+00
Cgsov:     6.59e-15    1.32e-14
Cgdov:     6.59e-15    1.32e-14
Cgbov:     3.18e-17    6.47e-17
dQgdVgb:   3.21e-14    1.00e-13
dQgdVdb:  -6.47e-15   -1.32e-14
dQgdVsb:  -2.27e-14   -7.78e-14
dQddVgb:  -6.61e-15   -1.33e-14
dQddVdb:   6.60e-15    1.32e-14
dQddVsb:   2.09e-17    9.01e-17
dQbdVgb:  -3.63e-15   -1.24e-14
dQbdVdb:   1.50e-17    2.88e-18
dQbdVsb:  -2.22e-15   -1.44e-14



Date: Thu Sep 23 18:08:30 2021
Total elapsed time: 0.085 seconds.

tnom = 27
temp = 27
method = trap
totiter = 371
traniter = 0
tranpoints = 0
accept = 0
rejected = 0
matrix size = 8
fillins = 0
solver = Normal
Matrix Compiler1: 228 bytes object code size
Matrix Compiler2: 540 bytes object code size  0.1/0.1/[0.0]

